
**** 09/08/12 15:40:35 ********* PSpice 9.2 (Mar 2000) ******** ID# 1 ********

 ** Profile: "SCHEMATIC1-SIM_MAIN"  [ H:\ETHERNET-QEL\SIMULATION\QEL_Drive\qel_drive-SCHEMATIC1-SIM_MAIN.sim ] 


 ****     CIRCUIT DESCRIPTION


******************************************************************************




** Creating circuit file "qel_drive-SCHEMATIC1-SIM_MAIN.sim.cir" 
** WARNING: THIS AUTOMATICALLY GENERATED FILE MAY BE OVERWRITTEN BY SUBSEQUENT SIMULATIONS

*Libraries: 
* Local Libraries :
* From [PSPICE NETLIST] section of C:\Program Files\Orcad\PSpice\PSpice.ini file:
.lib "nom.lib" 

*Analysis directives: 
.TRAN  0 10s 0 
.PROBE V(*) I(*) W(*) D(*) NOISE(*) 
.INC ".\qel_drive-SCHEMATIC1.net" 



**** INCLUDING qel_drive-SCHEMATIC1.net ****
* source QEL_DRIVE
X_U1         N00386 N00182 N00711 N01914 PS2501 PARAMS: REL_CTR=1
R_R5         N01181 N00711  12  
Q_Q1         N01181 N00646 0 TIP41B
Q_Q2         N00711 N00533 N00614 Q2N2222
V_V1         N00711 0 24Vdc
R_R4         N00614 N00646  168  
R_R6         N01914 N00533  56  
R_R1         0 N00182  56  
D_D1         N01181 N00711 D1N4444 
V_V2         N00386 0  
+PULSE 0 5 0.001 0.0001 0.0001 2 5
R_R3         0 N00533  1680  

**** RESUMING qel_drive-SCHEMATIC1-SIM_MAIN.sim.cir ****
.END

**** 09/08/12 15:40:35 ********* PSpice 9.2 (Mar 2000) ******** ID# 1 ********

 ** Profile: "SCHEMATIC1-SIM_MAIN"  [ H:\ETHERNET-QEL\SIMULATION\QEL_Drive\qel_drive-SCHEMATIC1-SIM_MAIN.sim ] 


 ****     Diode MODEL PARAMETERS


******************************************************************************




               D1N4444         X_U1.Demit      
          IS   26.660000E-09    1.000000E-12 
           N    2.062           1.999644     
         ISR    5.729000E-09                 
         IKF   22.1                          
          BV   70               6            
         IBV  100.000000E-06   10.000000E-06 
          RS     .4266                       
          TT   10.100000E-09  500.000000E-09 
         CJO    2.000000E-12   50.000000E-12 
          VJ     .75                         
           M     .3333                       
          EG                    1.424        


**** 09/08/12 15:40:35 ********* PSpice 9.2 (Mar 2000) ******** ID# 1 ********

 ** Profile: "SCHEMATIC1-SIM_MAIN"  [ H:\ETHERNET-QEL\SIMULATION\QEL_Drive\qel_drive-SCHEMATIC1-SIM_MAIN.sim ] 


 ****     BJT MODEL PARAMETERS


******************************************************************************




               TIP41B          Q2N2222         X_U1.Qdtect     
               NPN             NPN             NPN             
          IS  457.500000E-15   14.340000E-15  100.000000E-12 
          BF  156.7           255.9           100            
          NF    1               1               1.3          
         VAF   50              74.03          100            
         IKF    3.296            .2847                       
         ISE    1.346000E-12   14.340000E-15                 
          NE    1.34            1.307                        
          BR    7.639           6.092          50            
          NR    1               1               1            
         IKR    8.131000E-03                                 
         ISC  604.100000E-15                                 
          NC    2.168                                        
          NK     .5961                                       
          RB     .1            10                            
          RC     .09129         1                            
         CJE  433.000000E-12   22.010000E-12   10.000000E-12 
         MJE     .5              .377                        
         CJC  278.700000E-12    7.306000E-12   10.000000E-12 
         MJC     .385            .3416                       
         CJS                                    1.000000E-12 
          TF   37.340000E-09  411.100000E-12  100.000000E-12 
         XTF    1.163           3                            
         VTF   10               1.7                          
         ITF   35.68             .6                          
          TR    1.412000E-06   46.910000E-09  220.000000E-09 
         XTB    2.2             1.5                          
          CN    2.42            2.42            2.42         
           D     .87             .87             .87         


**** 09/08/12 15:40:35 ********* PSpice 9.2 (Mar 2000) ******** ID# 1 ********

 ** Profile: "SCHEMATIC1-SIM_MAIN"  [ H:\ETHERNET-QEL\SIMULATION\QEL_Drive\qel_drive-SCHEMATIC1-SIM_MAIN.sim ] 


 ****     INITIAL TRANSIENT SOLUTION       TEMPERATURE =   27.000 DEG C


******************************************************************************



 NODE   VOLTAGE     NODE   VOLTAGE     NODE   VOLTAGE     NODE   VOLTAGE


(N00182)-1.054E-24 (N00386)    0.0000 (N00533) 1.937E-06 (N00614)     .1144     

(N00646)     .1144 (N00711)   24.0000 (N01181)   24.0000 (N01914) 2.001E-06     

(X_U1.B)     .0738 (X_U1.D)-1.054E-24 (X_U1.R)-18.81E-27 (X_U1.T)-18.81E-27 




    VOLTAGE SOURCE CURRENTS
    NAME         CURRENT

    V_V1        -1.298E-09
    V_V2         1.881E-26
    X_U1.Vsense  -1.881E-26

    TOTAL POWER DISSIPATION   3.12E-08  WATTS



          JOB CONCLUDED

          TOTAL JOB TIME             .17
